                         solar cell i-v characteristics
                         DC transfer characteristic  Mon Sep 26 15:02:59  2022
--------------------------------------------------------------------------------
Index   v-sweep         i(vs)*v(2)      v(2)            
--------------------------------------------------------------------------------
0	-2.00000e+00	-3.28980e-03	-1.81916e+00	
1	-1.99000e+00	-3.25704e-03	-1.81006e+00	
2	-1.98000e+00	-3.22445e-03	-1.80096e+00	
3	-1.97000e+00	-3.19201e-03	-1.79186e+00	
4	-1.96000e+00	-3.15974e-03	-1.78276e+00	
5	-1.95000e+00	-3.12764e-03	-1.77366e+00	
6	-1.94000e+00	-3.09569e-03	-1.76456e+00	
7	-1.93000e+00	-3.06391e-03	-1.75546e+00	
8	-1.92000e+00	-3.03230e-03	-1.74637e+00	
9	-1.91000e+00	-3.00085e-03	-1.73727e+00	
10	-1.90000e+00	-2.96956e-03	-1.72817e+00	
11	-1.89000e+00	-2.93844e-03	-1.71907e+00	
12	-1.88000e+00	-2.90748e-03	-1.70997e+00	
13	-1.87000e+00	-2.87669e-03	-1.70087e+00	
14	-1.86000e+00	-2.84606e-03	-1.69177e+00	
15	-1.85000e+00	-2.81559e-03	-1.68267e+00	
16	-1.84000e+00	-2.78529e-03	-1.67357e+00	
17	-1.83000e+00	-2.75515e-03	-1.66447e+00	
18	-1.82000e+00	-2.72518e-03	-1.65537e+00	
19	-1.81000e+00	-2.69536e-03	-1.64627e+00	
20	-1.80000e+00	-2.66572e-03	-1.63718e+00	
21	-1.79000e+00	-2.63624e-03	-1.62808e+00	
22	-1.78000e+00	-2.60692e-03	-1.61898e+00	
23	-1.77000e+00	-2.57776e-03	-1.60988e+00	
24	-1.76000e+00	-2.54877e-03	-1.60078e+00	
25	-1.75000e+00	-2.51994e-03	-1.59168e+00	
26	-1.74000e+00	-2.49128e-03	-1.58258e+00	
27	-1.73000e+00	-2.46278e-03	-1.57348e+00	
28	-1.72000e+00	-2.43445e-03	-1.56438e+00	
29	-1.71000e+00	-2.40627e-03	-1.55528e+00	
30	-1.70000e+00	-2.37827e-03	-1.54618e+00	
31	-1.69000e+00	-2.35042e-03	-1.53709e+00	
32	-1.68000e+00	-2.32274e-03	-1.52799e+00	
33	-1.67000e+00	-2.29523e-03	-1.51889e+00	
34	-1.66000e+00	-2.26788e-03	-1.50979e+00	
35	-1.65000e+00	-2.24069e-03	-1.50069e+00	
36	-1.64000e+00	-2.21367e-03	-1.49159e+00	
37	-1.63000e+00	-2.18681e-03	-1.48249e+00	
38	-1.62000e+00	-2.16011e-03	-1.47339e+00	
39	-1.61000e+00	-2.13358e-03	-1.46429e+00	
40	-1.60000e+00	-2.10721e-03	-1.45519e+00	
41	-1.59000e+00	-2.08101e-03	-1.44609e+00	
42	-1.58000e+00	-2.05497e-03	-1.43700e+00	
43	-1.57000e+00	-2.02909e-03	-1.42790e+00	
44	-1.56000e+00	-2.00338e-03	-1.41880e+00	
45	-1.55000e+00	-1.97783e-03	-1.40970e+00	
46	-1.54000e+00	-1.95245e-03	-1.40060e+00	
47	-1.53000e+00	-1.92723e-03	-1.39150e+00	
48	-1.52000e+00	-1.90217e-03	-1.38240e+00	
49	-1.51000e+00	-1.87728e-03	-1.37330e+00	
50	-1.50000e+00	-1.85255e-03	-1.36420e+00	
51	-1.49000e+00	-1.82798e-03	-1.35510e+00	
52	-1.48000e+00	-1.80358e-03	-1.34600e+00	
53	-1.47000e+00	-1.77935e-03	-1.33691e+00	
54	-1.46000e+00	-1.75527e-03	-1.32781e+00	

Index   v-sweep         i(vs)*v(2)      v(2)            
--------------------------------------------------------------------------------
55	-1.45000e+00	-1.73137e-03	-1.31871e+00	
56	-1.44000e+00	-1.70762e-03	-1.30961e+00	
57	-1.43000e+00	-1.68404e-03	-1.30051e+00	
58	-1.42000e+00	-1.66062e-03	-1.29141e+00	
59	-1.41000e+00	-1.63737e-03	-1.28231e+00	
60	-1.40000e+00	-1.61428e-03	-1.27321e+00	
61	-1.39000e+00	-1.59136e-03	-1.26411e+00	
62	-1.38000e+00	-1.56860e-03	-1.25501e+00	
63	-1.37000e+00	-1.54600e-03	-1.24591e+00	
64	-1.36000e+00	-1.52356e-03	-1.23682e+00	
65	-1.35000e+00	-1.50130e-03	-1.22772e+00	
66	-1.34000e+00	-1.47919e-03	-1.21862e+00	
67	-1.33000e+00	-1.45725e-03	-1.20952e+00	
68	-1.32000e+00	-1.43547e-03	-1.20042e+00	
69	-1.31000e+00	-1.41386e-03	-1.19132e+00	
70	-1.30000e+00	-1.39241e-03	-1.18222e+00	
71	-1.29000e+00	-1.37112e-03	-1.17312e+00	
72	-1.28000e+00	-1.35000e-03	-1.16402e+00	
73	-1.27000e+00	-1.32904e-03	-1.15492e+00	
74	-1.26000e+00	-1.30825e-03	-1.14582e+00	
75	-1.25000e+00	-1.28762e-03	-1.13673e+00	
76	-1.24000e+00	-1.26715e-03	-1.12763e+00	
77	-1.23000e+00	-1.24685e-03	-1.11853e+00	
78	-1.22000e+00	-1.22672e-03	-1.10943e+00	
79	-1.21000e+00	-1.20674e-03	-1.10033e+00	
80	-1.20000e+00	-1.18693e-03	-1.09123e+00	
81	-1.19000e+00	-1.16729e-03	-1.08213e+00	
82	-1.18000e+00	-1.14780e-03	-1.07303e+00	
83	-1.17000e+00	-1.12848e-03	-1.06393e+00	
84	-1.16000e+00	-1.10933e-03	-1.05483e+00	
85	-1.15000e+00	-1.09034e-03	-1.04573e+00	
86	-1.14000e+00	-1.07151e-03	-1.03664e+00	
87	-1.13000e+00	-1.05285e-03	-1.02754e+00	
88	-1.12000e+00	-1.03435e-03	-1.01844e+00	
89	-1.11000e+00	-1.01602e-03	-1.00934e+00	
90	-1.10000e+00	-9.97848e-04	-1.00024e+00	
91	-1.09000e+00	-9.79842e-04	-9.91140e-01	
92	-1.08000e+00	-9.61999e-04	-9.82041e-01	
93	-1.07000e+00	-9.44320e-04	-9.72942e-01	
94	-1.06000e+00	-9.26806e-04	-9.63843e-01	
95	-1.05000e+00	-9.09455e-04	-9.54744e-01	
96	-1.04000e+00	-8.92268e-04	-9.45644e-01	
97	-1.03000e+00	-8.75245e-04	-9.36545e-01	
98	-1.02000e+00	-8.58386e-04	-9.27446e-01	
99	-1.01000e+00	-8.41691e-04	-9.18347e-01	
100	-1.00000e+00	-8.25160e-04	-9.09248e-01	
101	-9.90000e-01	-8.08793e-04	-9.00149e-01	
102	-9.80000e-01	-7.92590e-04	-8.91050e-01	
103	-9.70000e-01	-7.76551e-04	-8.81951e-01	
104	-9.60000e-01	-7.60675e-04	-8.72852e-01	
105	-9.50000e-01	-7.44964e-04	-8.63753e-01	
106	-9.40000e-01	-7.29417e-04	-8.54654e-01	
107	-9.30000e-01	-7.14033e-04	-8.45554e-01	
108	-9.20000e-01	-6.98814e-04	-8.36455e-01	
109	-9.10000e-01	-6.83758e-04	-8.27356e-01	
110	-9.00000e-01	-6.68867e-04	-8.18257e-01	
111	-8.90000e-01	-6.54139e-04	-8.09158e-01	
112	-8.80000e-01	-6.39575e-04	-8.00059e-01	

Index   v-sweep         i(vs)*v(2)      v(2)            
--------------------------------------------------------------------------------
113	-8.70000e-01	-6.25176e-04	-7.90960e-01	
114	-8.60000e-01	-6.10940e-04	-7.81861e-01	
115	-8.50000e-01	-5.96868e-04	-7.72762e-01	
116	-8.40000e-01	-5.82960e-04	-7.63663e-01	
117	-8.30000e-01	-5.69216e-04	-7.54564e-01	
118	-8.20000e-01	-5.55636e-04	-7.45464e-01	
119	-8.10000e-01	-5.42220e-04	-7.36365e-01	
120	-8.00000e-01	-5.28968e-04	-7.27266e-01	
121	-7.90000e-01	-5.15880e-04	-7.18167e-01	
122	-7.80000e-01	-5.02955e-04	-7.09068e-01	
123	-7.70000e-01	-4.90195e-04	-6.99969e-01	
124	-7.60000e-01	-4.77599e-04	-6.90870e-01	
125	-7.50000e-01	-4.65166e-04	-6.81771e-01	
126	-7.40000e-01	-4.52898e-04	-6.72672e-01	
127	-7.30000e-01	-4.40793e-04	-6.63573e-01	
128	-7.20000e-01	-4.28853e-04	-6.54474e-01	
129	-7.10000e-01	-4.17076e-04	-6.45375e-01	
130	-7.00000e-01	-4.05463e-04	-6.36275e-01	
131	-6.90000e-01	-3.94015e-04	-6.27176e-01	
132	-6.80000e-01	-3.82730e-04	-6.18077e-01	
133	-6.70000e-01	-3.71609e-04	-6.08978e-01	
134	-6.60000e-01	-3.60652e-04	-5.99879e-01	
135	-6.50000e-01	-3.49859e-04	-5.90780e-01	
136	-6.40000e-01	-3.39230e-04	-5.81681e-01	
137	-6.30000e-01	-3.28765e-04	-5.72582e-01	
138	-6.20000e-01	-3.18464e-04	-5.63483e-01	
139	-6.10000e-01	-3.08327e-04	-5.54384e-01	
140	-6.00000e-01	-2.98353e-04	-5.45285e-01	
141	-5.90000e-01	-2.88544e-04	-5.36186e-01	
142	-5.80000e-01	-2.78899e-04	-5.27087e-01	
143	-5.70000e-01	-2.69417e-04	-5.17988e-01	
144	-5.60000e-01	-2.60100e-04	-5.08889e-01	
145	-5.50000e-01	-2.50946e-04	-4.99790e-01	
146	-5.40000e-01	-2.41957e-04	-4.90691e-01	
147	-5.30000e-01	-2.33131e-04	-4.81592e-01	
148	-5.20000e-01	-2.24469e-04	-4.72493e-01	
149	-5.10000e-01	-2.15971e-04	-4.63394e-01	
150	-5.00000e-01	-2.07637e-04	-4.54295e-01	
151	-4.90000e-01	-1.99468e-04	-4.45196e-01	
152	-4.80000e-01	-1.91461e-04	-4.36097e-01	
153	-4.70000e-01	-1.83619e-04	-4.26998e-01	
154	-4.60000e-01	-1.75941e-04	-4.17899e-01	
155	-4.50000e-01	-1.68427e-04	-4.08800e-01	
156	-4.40000e-01	-1.61077e-04	-3.99701e-01	
157	-4.30000e-01	-1.53890e-04	-3.90602e-01	
158	-4.20000e-01	-1.46868e-04	-3.81503e-01	
159	-4.10000e-01	-1.40009e-04	-3.72404e-01	
160	-4.00000e-01	-1.33315e-04	-3.63305e-01	
161	-3.90000e-01	-1.26784e-04	-3.54206e-01	
162	-3.80000e-01	-1.20417e-04	-3.45107e-01	
163	-3.70000e-01	-1.14214e-04	-3.36009e-01	
164	-3.60000e-01	-1.08175e-04	-3.26910e-01	
165	-3.50000e-01	-1.02300e-04	-3.17811e-01	
166	-3.40000e-01	-9.65885e-05	-3.08712e-01	
167	-3.30000e-01	-9.10411e-05	-2.99614e-01	
168	-3.20000e-01	-8.56576e-05	-2.90515e-01	
169	-3.10000e-01	-8.04379e-05	-2.81417e-01	
170	-3.00000e-01	-7.53820e-05	-2.72318e-01	

Index   v-sweep         i(vs)*v(2)      v(2)            
--------------------------------------------------------------------------------
171	-2.90000e-01	-7.04900e-05	-2.63220e-01	
172	-2.80000e-01	-6.57618e-05	-2.54122e-01	
173	-2.70000e-01	-6.11974e-05	-2.45024e-01	
174	-2.60000e-01	-5.67967e-05	-2.35926e-01	
175	-2.50000e-01	-5.25598e-05	-2.26828e-01	
176	-2.40000e-01	-4.84865e-05	-2.17731e-01	
177	-2.30000e-01	-4.45769e-05	-2.08634e-01	
178	-2.20000e-01	-4.08309e-05	-1.99537e-01	
179	-2.10000e-01	-3.72484e-05	-1.90441e-01	
180	-2.00000e-01	-3.38294e-05	-1.81345e-01	
181	-1.90000e-01	-3.05737e-05	-1.72250e-01	
182	-1.80000e-01	-2.74812e-05	-1.63157e-01	
183	-1.70000e-01	-2.45521e-05	-1.54064e-01	
184	-1.60000e-01	-2.17865e-05	-1.44972e-01	
185	-1.50000e-01	-1.91845e-05	-1.35881e-01	
186	-1.40000e-01	-1.67461e-05	-1.26793e-01	
187	-1.30000e-01	-1.44714e-05	-1.17705e-01	
188	-1.20000e-01	-1.23606e-05	-1.08620e-01	
189	-1.10000e-01	-1.04138e-05	-9.95379e-02	
190	-1.00000e-01	-8.63121e-06	-9.04584e-02	
191	-9.00000e-02	-7.01328e-06	-8.13823e-02	
192	-8.00000e-02	-5.56043e-06	-7.23103e-02	
193	-7.00000e-02	-4.27324e-06	-6.32432e-02	
194	-6.00000e-02	-3.15248e-06	-5.41816e-02	
195	-5.00000e-02	-2.19914e-06	-4.51268e-02	
196	-4.00000e-02	-1.41444e-06	-3.60797e-02	
197	-3.00000e-02	-7.99965e-07	-2.70417e-02	
198	-2.00000e-02	-3.57672e-07	-1.80145e-02	
199	-1.00000e-02	-9.00073e-08	-8.99991e-03	
200	1.641048e-15	8.118477e-24	2.849376e-11	
201	1.000000e-02	-9.13812e-08	8.982698e-03	
202	2.000000e-02	-3.68722e-07	1.794530e-02	
203	3.000000e-02	-8.37593e-07	2.688447e-02	
204	4.000000e-02	-1.50474e-06	3.579638e-02	
205	5.000000e-02	-2.37830e-06	4.467663e-02	
206	6.000000e-02	-3.46800e-06	5.352021e-02	
207	7.000000e-02	-4.78540e-06	6.232142e-02	
208	8.000000e-02	-6.34414e-06	7.107387e-02	
209	9.000000e-02	-8.16021e-06	7.977038e-02	
210	1.000000e-01	-1.02521e-05	8.840297e-02	
211	1.100000e-01	-1.26411e-05	9.696292e-02	
212	1.200000e-01	-1.53514e-05	1.054407e-01	
213	1.300000e-01	-1.84101e-05	1.138261e-01	
214	1.400000e-01	-2.18472e-05	1.221083e-01	
215	1.500000e-01	-2.56955e-05	1.302761e-01	
216	1.600000e-01	-2.99901e-05	1.383180e-01	
217	1.700000e-01	-3.47681e-05	1.462224e-01	
218	1.800000e-01	-4.00680e-05	1.539782e-01	
219	1.900000e-01	-4.59284e-05	1.615744e-01	
220	2.000000e-01	-5.23881e-05	1.690014e-01	
221	2.100000e-01	-5.94841e-05	1.762502e-01	
222	2.200000e-01	-6.72514e-05	1.833134e-01	
223	2.300000e-01	-7.57218e-05	1.901852e-01	
224	2.400000e-01	-8.49235e-05	1.968612e-01	
225	2.500000e-01	-9.48801e-05	2.033389e-01	
226	2.600000e-01	-1.05611e-04	2.096174e-01	
227	2.700000e-01	-1.17129e-04	2.156973e-01	
228	2.800000e-01	-1.29446e-04	2.215809e-01	

Index   v-sweep         i(vs)*v(2)      v(2)            
--------------------------------------------------------------------------------
229	2.900000e-01	-1.42564e-04	2.272715e-01	
230	3.000000e-01	-1.56485e-04	2.327737e-01	
231	3.100000e-01	-1.71206e-04	2.380929e-01	
232	3.200000e-01	-1.86719e-04	2.432352e-01	
233	3.300000e-01	-2.03016e-04	2.482072e-01	
234	3.400000e-01	-2.20084e-04	2.530159e-01	
235	3.500000e-01	-2.37909e-04	2.576683e-01	
236	3.600000e-01	-2.56478e-04	2.621718e-01	
237	3.700000e-01	-2.75773e-04	2.665333e-01	
238	3.800000e-01	-2.95778e-04	2.707601e-01	
239	3.900000e-01	-3.16476e-04	2.748589e-01	
240	4.000000e-01	-3.37848e-04	2.788363e-01	
241	4.100000e-01	-3.59879e-04	2.826987e-01	
242	4.200000e-01	-3.82550e-04	2.864523e-01	
243	4.300000e-01	-4.05846e-04	2.901028e-01	
244	4.400000e-01	-4.29748e-04	2.936556e-01	
245	4.500000e-01	-4.54243e-04	2.971161e-01	
246	4.600000e-01	-4.79313e-04	3.004890e-01	
247	4.700000e-01	-5.04944e-04	3.037791e-01	
248	4.800000e-01	-5.31123e-04	3.069906e-01	
249	4.900000e-01	-5.57834e-04	3.101276e-01	
250	5.000000e-01	-5.85065e-04	3.131940e-01	
251	5.100000e-01	-6.12804e-04	3.161934e-01	
252	5.200000e-01	-6.41037e-04	3.191292e-01	
253	5.300000e-01	-6.69755e-04	3.220045e-01	
254	5.400000e-01	-6.98945e-04	3.248224e-01	
255	5.500000e-01	-7.28598e-04	3.275855e-01	
256	5.600000e-01	-7.58703e-04	3.302965e-01	
257	5.700000e-01	-7.89250e-04	3.329580e-01	
258	5.800000e-01	-8.20232e-04	3.355721e-01	
259	5.900000e-01	-8.51638e-04	3.381412e-01	
260	6.000000e-01	-8.83462e-04	3.406671e-01	
261	6.100000e-01	-9.15694e-04	3.431519e-01	
262	6.200000e-01	-9.48328e-04	3.455974e-01	
263	6.300000e-01	-9.81357e-04	3.480052e-01	
264	6.400000e-01	-1.01477e-03	3.503770e-01	
265	6.500000e-01	-1.04857e-03	3.527142e-01	
266	6.600000e-01	-1.08274e-03	3.550184e-01	
267	6.700000e-01	-1.11728e-03	3.572908e-01	
268	6.800000e-01	-1.15218e-03	3.595328e-01	
269	6.900000e-01	-1.18745e-03	3.617455e-01	
270	7.000000e-01	-1.22306e-03	3.639302e-01	
271	7.100000e-01	-1.25902e-03	3.660877e-01	
272	7.200000e-01	-1.29532e-03	3.682193e-01	
273	7.300000e-01	-1.33197e-03	3.703259e-01	
274	7.400000e-01	-1.36894e-03	3.724083e-01	
275	7.500000e-01	-1.40625e-03	3.744675e-01	
276	7.600000e-01	-1.44388e-03	3.765043e-01	
277	7.700000e-01	-1.48183e-03	3.785195e-01	
278	7.800000e-01	-1.52010e-03	3.805138e-01	
279	7.900000e-01	-1.55868e-03	3.824880e-01	
280	8.000000e-01	-1.59758e-03	3.844427e-01	
281	8.100000e-01	-1.63678e-03	3.863785e-01	
282	8.200000e-01	-1.67629e-03	3.882962e-01	
283	8.300000e-01	-1.71610e-03	3.901963e-01	
284	8.400000e-01	-1.75620e-03	3.920793e-01	
285	8.500000e-01	-1.79661e-03	3.939459e-01	
286	8.600000e-01	-1.83730e-03	3.957964e-01	

Index   v-sweep         i(vs)*v(2)      v(2)            
--------------------------------------------------------------------------------
287	8.700000e-01	-1.87829e-03	3.976315e-01	
288	8.800000e-01	-1.91956e-03	3.994515e-01	
289	8.900000e-01	-1.96112e-03	4.012569e-01	
290	9.000000e-01	-2.00296e-03	4.030482e-01	
291	9.100000e-01	-2.04508e-03	4.048258e-01	
292	9.200000e-01	-2.08747e-03	4.065900e-01	
293	9.300000e-01	-2.13015e-03	4.083413e-01	
294	9.400000e-01	-2.17310e-03	4.100799e-01	
295	9.500000e-01	-2.21632e-03	4.118064e-01	
296	9.600000e-01	-2.25981e-03	4.135209e-01	
297	9.700000e-01	-2.30356e-03	4.152239e-01	
298	9.800000e-01	-2.34759e-03	4.169156e-01	
299	9.900000e-01	-2.39187e-03	4.185963e-01	
300	1.000000e+00	-2.43643e-03	4.202664e-01	
301	1.010000e+00	-2.48124e-03	4.219260e-01	
302	1.020000e+00	-2.52631e-03	4.235755e-01	
303	1.030000e+00	-2.57164e-03	4.252152e-01	
304	1.040000e+00	-2.61722e-03	4.268452e-01	
305	1.050000e+00	-2.66306e-03	4.284658e-01	
306	1.060000e+00	-2.70915e-03	4.300772e-01	
307	1.070000e+00	-2.75550e-03	4.316797e-01	
308	1.080000e+00	-2.80209e-03	4.332735e-01	
309	1.090000e+00	-2.84894e-03	4.348587e-01	
310	1.100000e+00	-2.89603e-03	4.364357e-01	
311	1.110000e+00	-2.94337e-03	4.380045e-01	
312	1.120000e+00	-2.99095e-03	4.395654e-01	
313	1.130000e+00	-3.03878e-03	4.411185e-01	
314	1.140000e+00	-3.08686e-03	4.426640e-01	
315	1.150000e+00	-3.13517e-03	4.442021e-01	
316	1.160000e+00	-3.18372e-03	4.457330e-01	
317	1.170000e+00	-3.23252e-03	4.472568e-01	
318	1.180000e+00	-3.28155e-03	4.487736e-01	
319	1.190000e+00	-3.33082e-03	4.502837e-01	
320	1.200000e+00	-3.38033e-03	4.517871e-01	
321	1.210000e+00	-3.43007e-03	4.532840e-01	
322	1.220000e+00	-3.48005e-03	4.547745e-01	
323	1.230000e+00	-3.53026e-03	4.562588e-01	
324	1.240000e+00	-3.58071e-03	4.577370e-01	
325	1.250000e+00	-3.63138e-03	4.592092e-01	
326	1.260000e+00	-3.68229e-03	4.606755e-01	
327	1.270000e+00	-3.73343e-03	4.621361e-01	
328	1.280000e+00	-3.78480e-03	4.635911e-01	
329	1.290000e+00	-3.83640e-03	4.650405e-01	
330	1.300000e+00	-3.88822e-03	4.664845e-01	
331	1.310000e+00	-3.94027e-03	4.679232e-01	
332	1.320000e+00	-3.99255e-03	4.693567e-01	
333	1.330000e+00	-4.04506e-03	4.707850e-01	
334	1.340000e+00	-4.09778e-03	4.722083e-01	
335	1.350000e+00	-4.15074e-03	4.736267e-01	
336	1.360000e+00	-4.20392e-03	4.750403e-01	
337	1.370000e+00	-4.25732e-03	4.764491e-01	
338	1.380000e+00	-4.31094e-03	4.778533e-01	
339	1.390000e+00	-4.36478e-03	4.792528e-01	
340	1.400000e+00	-4.41885e-03	4.806479e-01	
341	1.410000e+00	-4.47313e-03	4.820386e-01	
342	1.420000e+00	-4.52764e-03	4.834249e-01	
343	1.430000e+00	-4.58236e-03	4.848069e-01	
344	1.440000e+00	-4.63730e-03	4.861848e-01	

Index   v-sweep         i(vs)*v(2)      v(2)            
--------------------------------------------------------------------------------
345	1.450000e+00	-4.69247e-03	4.875585e-01	
346	1.460000e+00	-4.74784e-03	4.889282e-01	
347	1.470000e+00	-4.80344e-03	4.902939e-01	
348	1.480000e+00	-4.85925e-03	4.916557e-01	
349	1.490000e+00	-4.91528e-03	4.930136e-01	
350	1.500000e+00	-4.97152e-03	4.943677e-01	
351	1.510000e+00	-5.02798e-03	4.957181e-01	
352	1.520000e+00	-5.08465e-03	4.970648e-01	
353	1.530000e+00	-5.14154e-03	4.984080e-01	
354	1.540000e+00	-5.19864e-03	4.997475e-01	
355	1.550000e+00	-5.25595e-03	5.010836e-01	
356	1.560000e+00	-5.31347e-03	5.024162e-01	
357	1.570000e+00	-5.37121e-03	5.037455e-01	
358	1.580000e+00	-5.42916e-03	5.050714e-01	
359	1.590000e+00	-5.48732e-03	5.063940e-01	
360	1.600000e+00	-5.54569e-03	5.077134e-01	
361	1.610000e+00	-5.60427e-03	5.090296e-01	
362	1.620000e+00	-5.66305e-03	5.103427e-01	
363	1.630000e+00	-5.72205e-03	5.116527e-01	
364	1.640000e+00	-5.78126e-03	5.129596e-01	
365	1.650000e+00	-5.84068e-03	5.142635e-01	
366	1.660000e+00	-5.90030e-03	5.155645e-01	
367	1.670000e+00	-5.96014e-03	5.168625e-01	
368	1.680000e+00	-6.02018e-03	5.181577e-01	
369	1.690000e+00	-6.08042e-03	5.194501e-01	
370	1.700000e+00	-6.14088e-03	5.207397e-01	
371	1.710000e+00	-6.20154e-03	5.220265e-01	
372	1.720000e+00	-6.26240e-03	5.233106e-01	
373	1.730000e+00	-6.32347e-03	5.245920e-01	
374	1.740000e+00	-6.38475e-03	5.258708e-01	
375	1.750000e+00	-6.44623e-03	5.271470e-01	
376	1.760000e+00	-6.50792e-03	5.284206e-01	
377	1.770000e+00	-6.56981e-03	5.296917e-01	
378	1.780000e+00	-6.63190e-03	5.309603e-01	
379	1.790000e+00	-6.69420e-03	5.322264e-01	
380	1.800000e+00	-6.75671e-03	5.334901e-01	
381	1.810000e+00	-6.81941e-03	5.347514e-01	
382	1.820000e+00	-6.88232e-03	5.360104e-01	
383	1.830000e+00	-6.94543e-03	5.372670e-01	
384	1.840000e+00	-7.00874e-03	5.385212e-01	
385	1.850000e+00	-7.07225e-03	5.397733e-01	
386	1.860000e+00	-7.13597e-03	5.410230e-01	
387	1.870000e+00	-7.19989e-03	5.422706e-01	
388	1.880000e+00	-7.26400e-03	5.435159e-01	
389	1.890000e+00	-7.32832e-03	5.447591e-01	
390	1.900000e+00	-7.39284e-03	5.460002e-01	
391	1.910000e+00	-7.45756e-03	5.472391e-01	
392	1.920000e+00	-7.52248e-03	5.484760e-01	
393	1.930000e+00	-7.58760e-03	5.497108e-01	
394	1.940000e+00	-7.65292e-03	5.509436e-01	
395	1.950000e+00	-7.71843e-03	5.521743e-01	
396	1.960000e+00	-7.78415e-03	5.534031e-01	
397	1.970000e+00	-7.85007e-03	5.546300e-01	
398	1.980000e+00	-7.91618e-03	5.558548e-01	
399	1.990000e+00	-7.98249e-03	5.570778e-01	
400	2.000000e+00	-8.04900e-03	5.582989e-01	
