                         solar cell i-v characteristics
                         DC transfer characteristic  Mon Sep 26 15:05:01  2022
--------------------------------------------------------------------------------
Index   v-sweep         -i(vs)          v(2)            
--------------------------------------------------------------------------------
0	-2.00000e+00	-1.08141e-02	-9.18592e-01	
1	-1.99000e+00	-1.08051e-02	-9.09493e-01	
2	-1.98000e+00	-1.07961e-02	-9.00394e-01	
3	-1.97000e+00	-1.07871e-02	-8.91295e-01	
4	-1.96000e+00	-1.07780e-02	-8.82195e-01	
5	-1.95000e+00	-1.07690e-02	-8.73096e-01	
6	-1.94000e+00	-1.07600e-02	-8.63997e-01	
7	-1.93000e+00	-1.07510e-02	-8.54898e-01	
8	-1.92000e+00	-1.07420e-02	-8.45799e-01	
9	-1.91000e+00	-1.07330e-02	-8.36700e-01	
10	-1.90000e+00	-1.07240e-02	-8.27601e-01	
11	-1.89000e+00	-1.07150e-02	-8.18502e-01	
12	-1.88000e+00	-1.07060e-02	-8.09403e-01	
13	-1.87000e+00	-1.06970e-02	-8.00304e-01	
14	-1.86000e+00	-1.06880e-02	-7.91205e-01	
15	-1.85000e+00	-1.06789e-02	-7.82105e-01	
16	-1.84000e+00	-1.06699e-02	-7.73006e-01	
17	-1.83000e+00	-1.06609e-02	-7.63907e-01	
18	-1.82000e+00	-1.06519e-02	-7.54808e-01	
19	-1.81000e+00	-1.06429e-02	-7.45709e-01	
20	-1.80000e+00	-1.06339e-02	-7.36610e-01	
21	-1.79000e+00	-1.06249e-02	-7.27511e-01	
22	-1.78000e+00	-1.06159e-02	-7.18412e-01	
23	-1.77000e+00	-1.06069e-02	-7.09313e-01	
24	-1.76000e+00	-1.05979e-02	-7.00214e-01	
25	-1.75000e+00	-1.05889e-02	-6.91115e-01	
26	-1.74000e+00	-1.05798e-02	-6.82016e-01	
27	-1.73000e+00	-1.05708e-02	-6.72916e-01	
28	-1.72000e+00	-1.05618e-02	-6.63817e-01	
29	-1.71000e+00	-1.05528e-02	-6.54718e-01	
30	-1.70000e+00	-1.05438e-02	-6.45619e-01	
31	-1.69000e+00	-1.05348e-02	-6.36520e-01	
32	-1.68000e+00	-1.05258e-02	-6.27421e-01	
33	-1.67000e+00	-1.05168e-02	-6.18322e-01	
34	-1.66000e+00	-1.05078e-02	-6.09223e-01	
35	-1.65000e+00	-1.04988e-02	-6.00124e-01	
36	-1.64000e+00	-1.04898e-02	-5.91025e-01	
37	-1.63000e+00	-1.04807e-02	-5.81926e-01	
38	-1.62000e+00	-1.04717e-02	-5.72827e-01	
39	-1.61000e+00	-1.04627e-02	-5.63728e-01	
40	-1.60000e+00	-1.04537e-02	-5.54629e-01	
41	-1.59000e+00	-1.04447e-02	-5.45529e-01	
42	-1.58000e+00	-1.04357e-02	-5.36430e-01	
43	-1.57000e+00	-1.04267e-02	-5.27331e-01	
44	-1.56000e+00	-1.04177e-02	-5.18232e-01	
45	-1.55000e+00	-1.04087e-02	-5.09133e-01	
46	-1.54000e+00	-1.03997e-02	-5.00034e-01	
47	-1.53000e+00	-1.03906e-02	-4.90935e-01	
48	-1.52000e+00	-1.03816e-02	-4.81836e-01	
49	-1.51000e+00	-1.03726e-02	-4.72737e-01	
50	-1.50000e+00	-1.03636e-02	-4.63638e-01	
51	-1.49000e+00	-1.03546e-02	-4.54539e-01	
52	-1.48000e+00	-1.03456e-02	-4.45440e-01	
53	-1.47000e+00	-1.03366e-02	-4.36341e-01	
54	-1.46000e+00	-1.03276e-02	-4.27242e-01	

Index   v-sweep         -i(vs)          v(2)            
--------------------------------------------------------------------------------
55	-1.45000e+00	-1.03186e-02	-4.18143e-01	
56	-1.44000e+00	-1.03096e-02	-4.09044e-01	
57	-1.43000e+00	-1.03005e-02	-3.99946e-01	
58	-1.42000e+00	-1.02915e-02	-3.90847e-01	
59	-1.41000e+00	-1.02825e-02	-3.81748e-01	
60	-1.40000e+00	-1.02735e-02	-3.72649e-01	
61	-1.39000e+00	-1.02645e-02	-3.63550e-01	
62	-1.38000e+00	-1.02555e-02	-3.54452e-01	
63	-1.37000e+00	-1.02465e-02	-3.45353e-01	
64	-1.36000e+00	-1.02375e-02	-3.36255e-01	
65	-1.35000e+00	-1.02284e-02	-3.27156e-01	
66	-1.34000e+00	-1.02194e-02	-3.18058e-01	
67	-1.33000e+00	-1.02104e-02	-3.08960e-01	
68	-1.32000e+00	-1.02014e-02	-2.99862e-01	
69	-1.31000e+00	-1.01924e-02	-2.90764e-01	
70	-1.30000e+00	-1.01833e-02	-2.81666e-01	
71	-1.29000e+00	-1.01743e-02	-2.72569e-01	
72	-1.28000e+00	-1.01653e-02	-2.63472e-01	
73	-1.27000e+00	-1.01562e-02	-2.54376e-01	
74	-1.26000e+00	-1.01472e-02	-2.45280e-01	
75	-1.25000e+00	-1.01381e-02	-2.36185e-01	
76	-1.24000e+00	-1.01291e-02	-2.27091e-01	
77	-1.23000e+00	-1.01200e-02	-2.17997e-01	
78	-1.22000e+00	-1.01110e-02	-2.08905e-01	
79	-1.21000e+00	-1.01019e-02	-1.99814e-01	
80	-1.20000e+00	-1.00928e-02	-1.90724e-01	
81	-1.19000e+00	-1.00836e-02	-1.81636e-01	
82	-1.18000e+00	-1.00745e-02	-1.72550e-01	
83	-1.17000e+00	-1.00653e-02	-1.63467e-01	
84	-1.16000e+00	-1.00561e-02	-1.54386e-01	
85	-1.15000e+00	-1.00469e-02	-1.45309e-01	
86	-1.14000e+00	-1.00376e-02	-1.36236e-01	
87	-1.13000e+00	-1.00283e-02	-1.27167e-01	
88	-1.12000e+00	-1.00190e-02	-1.18105e-01	
89	-1.11000e+00	-1.00095e-02	-1.09048e-01	
90	-1.10000e+00	-1.00000e-02	-1.00000e-01	
91	-1.09000e+00	-9.99039e-03	-9.09609e-02	
92	-1.08000e+00	-9.98067e-03	-8.19327e-02	
93	-1.07000e+00	-9.97083e-03	-7.29174e-02	
94	-1.06000e+00	-9.96083e-03	-6.39171e-02	
95	-1.05000e+00	-9.95065e-03	-5.49346e-02	
96	-1.04000e+00	-9.94027e-03	-4.59730e-02	
97	-1.03000e+00	-9.92964e-03	-3.70357e-02	
98	-1.02000e+00	-9.91873e-03	-2.81270e-02	
99	-1.01000e+00	-9.90748e-03	-1.92516e-02	
100	-1.00000e+00	-9.89585e-03	-1.04150e-02	
101	-9.90000e-01	-9.88377e-03	-1.62327e-03	
102	-9.80000e-01	-9.87117e-03	7.116518e-03	
103	-9.70000e-01	-9.85797e-03	1.579653e-02	
104	-9.60000e-01	-9.84408e-03	2.440806e-02	
105	-9.50000e-01	-9.82942e-03	3.294151e-02	
106	-9.40000e-01	-9.81387e-03	4.138650e-02	
107	-9.30000e-01	-9.79732e-03	4.973190e-02	
108	-9.20000e-01	-9.77966e-03	5.796598e-02	
109	-9.10000e-01	-9.76077e-03	6.607661e-02	
110	-9.00000e-01	-9.74051e-03	7.405149e-02	
111	-8.90000e-01	-9.71878e-03	8.187843e-02	
112	-8.80000e-01	-9.69546e-03	8.954570e-02	

Index   v-sweep         -i(vs)          v(2)            
--------------------------------------------------------------------------------
113	-8.70000e-01	-9.67042e-03	9.704233e-02	
114	-8.60000e-01	-9.64358e-03	1.043584e-01	
115	-8.50000e-01	-9.61486e-03	1.114855e-01	
116	-8.40000e-01	-9.58417e-03	1.184167e-01	
117	-8.30000e-01	-9.55147e-03	1.251469e-01	
118	-8.20000e-01	-9.51673e-03	1.316729e-01	
119	-8.10000e-01	-9.47993e-03	1.379932e-01	
120	-8.00000e-01	-9.44108e-03	1.441084e-01	
121	-7.90000e-01	-9.40020e-03	1.500203e-01	
122	-7.80000e-01	-9.35733e-03	1.557325e-01	
123	-7.70000e-01	-9.31250e-03	1.612497e-01	
124	-7.60000e-01	-9.26578e-03	1.665776e-01	
125	-7.50000e-01	-9.21723e-03	1.717226e-01	
126	-7.40000e-01	-9.16692e-03	1.766918e-01	
127	-7.30000e-01	-9.11493e-03	1.814926e-01	
128	-7.20000e-01	-9.06133e-03	1.861327e-01	
129	-7.10000e-01	-9.00620e-03	1.906195e-01	
130	-7.00000e-01	-8.94961e-03	1.949609e-01	
131	-6.90000e-01	-8.89164e-03	1.991643e-01	
132	-6.80000e-01	-8.83237e-03	2.032368e-01	
133	-6.70000e-01	-8.77186e-03	2.071857e-01	
134	-6.60000e-01	-8.71017e-03	2.110174e-01	
135	-6.50000e-01	-8.64739e-03	2.147385e-01	
136	-6.40000e-01	-8.58355e-03	2.183551e-01	
137	-6.30000e-01	-8.51873e-03	2.218728e-01	
138	-6.20000e-01	-8.45297e-03	2.252972e-01	
139	-6.10000e-01	-8.38633e-03	2.286332e-01	
140	-6.00000e-01	-8.31886e-03	2.318857e-01	
141	-5.90000e-01	-8.25059e-03	2.350592e-01	
142	-5.80000e-01	-8.18158e-03	2.381580e-01	
143	-5.70000e-01	-8.11186e-03	2.411859e-01	
144	-5.60000e-01	-8.04147e-03	2.441467e-01	
145	-5.50000e-01	-7.97044e-03	2.470438e-01	
146	-5.40000e-01	-7.89881e-03	2.498805e-01	
147	-5.30000e-01	-7.82660e-03	2.526599e-01	
148	-5.20000e-01	-7.75385e-03	2.553847e-01	
149	-5.10000e-01	-7.68058e-03	2.580577e-01	
150	-5.00000e-01	-7.60681e-03	2.606813e-01	
151	-4.90000e-01	-7.53258e-03	2.632580e-01	
152	-4.80000e-01	-7.45790e-03	2.657898e-01	
153	-4.70000e-01	-7.38279e-03	2.682789e-01	
154	-4.60000e-01	-7.30727e-03	2.707273e-01	
155	-4.50000e-01	-7.23137e-03	2.731366e-01	
156	-4.40000e-01	-7.15509e-03	2.755088e-01	
157	-4.30000e-01	-7.07845e-03	2.778453e-01	
158	-4.20000e-01	-7.00148e-03	2.801476e-01	
159	-4.10000e-01	-6.92417e-03	2.824174e-01	
160	-4.00000e-01	-6.84656e-03	2.846558e-01	
161	-3.90000e-01	-6.76864e-03	2.868641e-01	
162	-3.80000e-01	-6.69044e-03	2.890437e-01	
163	-3.70000e-01	-6.61196e-03	2.911955e-01	
164	-3.60000e-01	-6.53321e-03	2.933208e-01	
165	-3.50000e-01	-6.45420e-03	2.954204e-01	
166	-3.40000e-01	-6.37495e-03	2.974954e-01	
167	-3.30000e-01	-6.29547e-03	2.995468e-01	
168	-3.20000e-01	-6.21575e-03	3.015753e-01	
169	-3.10000e-01	-6.13582e-03	3.035818e-01	
170	-3.00000e-01	-6.05567e-03	3.055670e-01	

Index   v-sweep         -i(vs)          v(2)            
--------------------------------------------------------------------------------
171	-2.90000e-01	-5.97532e-03	3.075318e-01	
172	-2.80000e-01	-5.89477e-03	3.094769e-01	
173	-2.70000e-01	-5.81403e-03	3.114028e-01	
174	-2.60000e-01	-5.73310e-03	3.133103e-01	
175	-2.50000e-01	-5.65200e-03	3.152000e-01	
176	-2.40000e-01	-5.57072e-03	3.170724e-01	
177	-2.30000e-01	-5.48928e-03	3.189281e-01	
178	-2.20000e-01	-5.40768e-03	3.207677e-01	
179	-2.10000e-01	-5.32592e-03	3.225917e-01	
180	-2.00000e-01	-5.24400e-03	3.244004e-01	
181	-1.90000e-01	-5.16194e-03	3.261945e-01	
182	-1.80000e-01	-5.07974e-03	3.279743e-01	
183	-1.70000e-01	-4.99740e-03	3.297403e-01	
184	-1.60000e-01	-4.91493e-03	3.314929e-01	
185	-1.50000e-01	-4.83232e-03	3.332324e-01	
186	-1.40000e-01	-4.74959e-03	3.349593e-01	
187	-1.30000e-01	-4.66674e-03	3.366739e-01	
188	-1.20000e-01	-4.58377e-03	3.383765e-01	
189	-1.10000e-01	-4.50068e-03	3.400675e-01	
190	-1.00000e-01	-4.41747e-03	3.417472e-01	
191	-9.00000e-02	-4.33416e-03	3.434160e-01	
192	-8.00000e-02	-4.25074e-03	3.450740e-01	
193	-7.00000e-02	-4.16722e-03	3.467216e-01	
194	-6.00000e-02	-4.08359e-03	3.483591e-01	
195	-5.00000e-02	-3.99987e-03	3.499866e-01	
196	-4.00000e-02	-3.91605e-03	3.516046e-01	
197	-3.00000e-02	-3.83213e-03	3.532131e-01	
198	-2.00000e-02	-3.74813e-03	3.548125e-01	
199	-1.00000e-02	-3.66403e-03	3.564030e-01	
200	1.641048e-15	-3.57985e-03	3.579848e-01	
201	1.000000e-02	-3.49558e-03	3.595580e-01	
202	2.000000e-02	-3.41123e-03	3.611230e-01	
203	3.000000e-02	-3.32680e-03	3.626798e-01	
204	4.000000e-02	-3.24229e-03	3.642288e-01	
205	5.000000e-02	-3.15770e-03	3.657700e-01	
206	6.000000e-02	-3.07304e-03	3.673036e-01	
207	7.000000e-02	-2.98830e-03	3.688299e-01	
208	8.000000e-02	-2.90349e-03	3.703490e-01	
209	9.000000e-02	-2.81861e-03	3.718610e-01	
210	1.000000e-01	-2.73366e-03	3.733661e-01	
211	1.100000e-01	-2.64864e-03	3.748645e-01	
212	1.200000e-01	-2.56356e-03	3.763562e-01	
213	1.300000e-01	-2.47842e-03	3.778415e-01	
214	1.400000e-01	-2.39320e-03	3.793205e-01	
215	1.500000e-01	-2.30793e-03	3.807932e-01	
216	1.600000e-01	-2.22260e-03	3.822599e-01	
217	1.700000e-01	-2.13721e-03	3.837207e-01	
218	1.800000e-01	-2.05176e-03	3.851756e-01	
219	1.900000e-01	-1.96625e-03	3.866249e-01	
220	2.000000e-01	-1.88068e-03	3.880685e-01	
221	2.100000e-01	-1.79507e-03	3.895067e-01	
222	2.200000e-01	-1.70939e-03	3.909395e-01	
223	2.300000e-01	-1.62367e-03	3.923670e-01	
224	2.400000e-01	-1.53789e-03	3.937893e-01	
225	2.500000e-01	-1.45207e-03	3.952066e-01	
226	2.600000e-01	-1.36619e-03	3.966189e-01	
227	2.700000e-01	-1.28026e-03	3.980264e-01	
228	2.800000e-01	-1.19429e-03	3.994290e-01	

Index   v-sweep         -i(vs)          v(2)            
--------------------------------------------------------------------------------
229	2.900000e-01	-1.10827e-03	4.008270e-01	
230	3.000000e-01	-1.02220e-03	4.022203e-01	
231	3.100000e-01	-9.36091e-04	4.036091e-01	
232	3.200000e-01	-8.49935e-04	4.049935e-01	
233	3.300000e-01	-7.63735e-04	4.063735e-01	
234	3.400000e-01	-6.77492e-04	4.077492e-01	
235	3.500000e-01	-5.91206e-04	4.091206e-01	
236	3.600000e-01	-5.04880e-04	4.104880e-01	
237	3.700000e-01	-4.18512e-04	4.118512e-01	
238	3.800000e-01	-3.32105e-04	4.132105e-01	
239	3.900000e-01	-2.45658e-04	4.145658e-01	
240	4.000000e-01	-1.59173e-04	4.159173e-01	
241	4.100000e-01	-7.26492e-05	4.172649e-01	
242	4.200000e-01	1.391170e-05	4.186088e-01	
243	4.300000e-01	1.005094e-04	4.199491e-01	
244	4.400000e-01	1.871433e-04	4.212857e-01	
245	4.500000e-01	2.738128e-04	4.226187e-01	
246	4.600000e-01	3.605173e-04	4.239483e-01	
247	4.700000e-01	4.472563e-04	4.252744e-01	
248	4.800000e-01	5.340292e-04	4.265971e-01	
249	4.900000e-01	6.208355e-04	4.279164e-01	
250	5.000000e-01	7.076747e-04	4.292325e-01	
251	5.100000e-01	7.945463e-04	4.305454e-01	
252	5.200000e-01	8.814498e-04	4.318550e-01	
253	5.300000e-01	9.683846e-04	4.331615e-01	
254	5.400000e-01	1.055350e-03	4.344650e-01	
255	5.500000e-01	1.142346e-03	4.357654e-01	
256	5.600000e-01	1.229373e-03	4.370627e-01	
257	5.700000e-01	1.316428e-03	4.383572e-01	
258	5.800000e-01	1.403513e-03	4.396487e-01	
259	5.900000e-01	1.490627e-03	4.409373e-01	
260	6.000000e-01	1.577768e-03	4.422232e-01	
261	6.100000e-01	1.664938e-03	4.435062e-01	
262	6.200000e-01	1.752135e-03	4.447865e-01	
263	6.300000e-01	1.839359e-03	4.460641e-01	
264	6.400000e-01	1.926610e-03	4.473390e-01	
265	6.500000e-01	2.013887e-03	4.486113e-01	
266	6.600000e-01	2.101190e-03	4.498810e-01	
267	6.700000e-01	2.188519e-03	4.511481e-01	
268	6.800000e-01	2.275873e-03	4.524127e-01	
269	6.900000e-01	2.363252e-03	4.536748e-01	
270	7.000000e-01	2.450655e-03	4.549345e-01	
271	7.100000e-01	2.538083e-03	4.561917e-01	
272	7.200000e-01	2.625534e-03	4.574466e-01	
273	7.300000e-01	2.713009e-03	4.586991e-01	
274	7.400000e-01	2.800507e-03	4.599493e-01	
275	7.500000e-01	2.888028e-03	4.611972e-01	
276	7.600000e-01	2.975572e-03	4.624428e-01	
277	7.700000e-01	3.063139e-03	4.636861e-01	
278	7.800000e-01	3.150727e-03	4.649273e-01	
279	7.900000e-01	3.238337e-03	4.661663e-01	
280	8.000000e-01	3.325969e-03	4.674031e-01	
281	8.100000e-01	3.413621e-03	4.686379e-01	
282	8.200000e-01	3.501295e-03	4.698705e-01	
283	8.300000e-01	3.588990e-03	4.711010e-01	
284	8.400000e-01	3.676705e-03	4.723295e-01	
285	8.500000e-01	3.764440e-03	4.735560e-01	
286	8.600000e-01	3.852195e-03	4.747805e-01	

Index   v-sweep         -i(vs)          v(2)            
--------------------------------------------------------------------------------
287	8.700000e-01	3.939970e-03	4.760030e-01	
288	8.800000e-01	4.027764e-03	4.772236e-01	
289	8.900000e-01	4.115578e-03	4.784422e-01	
290	9.000000e-01	4.203410e-03	4.796590e-01	
291	9.100000e-01	4.291261e-03	4.808739e-01	
292	9.200000e-01	4.379131e-03	4.820869e-01	
293	9.300000e-01	4.467019e-03	4.832981e-01	
294	9.400000e-01	4.554926e-03	4.845074e-01	
295	9.500000e-01	4.642850e-03	4.857150e-01	
296	9.600000e-01	4.730792e-03	4.869208e-01	
297	9.700000e-01	4.818751e-03	4.881249e-01	
298	9.800000e-01	4.906728e-03	4.893272e-01	
299	9.900000e-01	4.994721e-03	4.905279e-01	
300	1.000000e+00	5.082732e-03	4.917268e-01	
301	1.010000e+00	5.170759e-03	4.929241e-01	
302	1.020000e+00	5.258803e-03	4.941197e-01	
303	1.030000e+00	5.346863e-03	4.953137e-01	
304	1.040000e+00	5.434939e-03	4.965061e-01	
305	1.050000e+00	5.523032e-03	4.976968e-01	
306	1.060000e+00	5.611140e-03	4.988860e-01	
307	1.070000e+00	5.699263e-03	5.000737e-01	
308	1.080000e+00	5.787402e-03	5.012598e-01	
309	1.090000e+00	5.875557e-03	5.024443e-01	
310	1.100000e+00	5.963726e-03	5.036274e-01	
311	1.110000e+00	6.051911e-03	5.048089e-01	
312	1.120000e+00	6.140110e-03	5.059890e-01	
313	1.130000e+00	6.228324e-03	5.071676e-01	
314	1.140000e+00	6.316552e-03	5.083448e-01	
315	1.150000e+00	6.404795e-03	5.095205e-01	
316	1.160000e+00	6.493052e-03	5.106948e-01	
317	1.170000e+00	6.581323e-03	5.118677e-01	
318	1.180000e+00	6.669608e-03	5.130392e-01	
319	1.190000e+00	6.757907e-03	5.142093e-01	
320	1.200000e+00	6.846219e-03	5.153781e-01	
321	1.210000e+00	6.934544e-03	5.165456e-01	
322	1.220000e+00	7.022883e-03	5.177117e-01	
323	1.230000e+00	7.111236e-03	5.188764e-01	
324	1.240000e+00	7.199601e-03	5.200399e-01	
325	1.250000e+00	7.287979e-03	5.212021e-01	
326	1.260000e+00	7.376370e-03	5.223630e-01	
327	1.270000e+00	7.464774e-03	5.235226e-01	
328	1.280000e+00	7.553190e-03	5.246810e-01	
329	1.290000e+00	7.641618e-03	5.258382e-01	
330	1.300000e+00	7.730059e-03	5.269941e-01	
331	1.310000e+00	7.818513e-03	5.281487e-01	
332	1.320000e+00	7.906978e-03	5.293022e-01	
333	1.330000e+00	7.995455e-03	5.304545e-01	
334	1.340000e+00	8.083944e-03	5.316056e-01	
335	1.350000e+00	8.172445e-03	5.327555e-01	
336	1.360000e+00	8.260957e-03	5.339043e-01	
337	1.370000e+00	8.349481e-03	5.350519e-01	
338	1.380000e+00	8.438016e-03	5.361984e-01	
339	1.390000e+00	8.526563e-03	5.373437e-01	
340	1.400000e+00	8.615120e-03	5.384880e-01	
341	1.410000e+00	8.703689e-03	5.396311e-01	
342	1.420000e+00	8.792269e-03	5.407731e-01	
343	1.430000e+00	8.880860e-03	5.419140e-01	
344	1.440000e+00	8.969461e-03	5.430539e-01	

Index   v-sweep         -i(vs)          v(2)            
--------------------------------------------------------------------------------
345	1.450000e+00	9.058073e-03	5.441927e-01	
346	1.460000e+00	9.146696e-03	5.453304e-01	
347	1.470000e+00	9.235329e-03	5.464671e-01	
348	1.480000e+00	9.323973e-03	5.476027e-01	
349	1.490000e+00	9.412627e-03	5.487373e-01	
350	1.500000e+00	9.501291e-03	5.498709e-01	
351	1.510000e+00	9.589965e-03	5.510035e-01	
352	1.520000e+00	9.678649e-03	5.521351e-01	
353	1.530000e+00	9.767343e-03	5.532657e-01	
354	1.540000e+00	9.856047e-03	5.543953e-01	
355	1.550000e+00	9.944761e-03	5.555239e-01	
356	1.560000e+00	1.003348e-02	5.566515e-01	
357	1.570000e+00	1.012222e-02	5.577782e-01	
358	1.580000e+00	1.021096e-02	5.589040e-01	
359	1.590000e+00	1.029971e-02	5.600288e-01	
360	1.600000e+00	1.038847e-02	5.611526e-01	
361	1.610000e+00	1.047724e-02	5.622756e-01	
362	1.620000e+00	1.056602e-02	5.633976e-01	
363	1.630000e+00	1.065481e-02	5.645187e-01	
364	1.640000e+00	1.074361e-02	5.656389e-01	
365	1.650000e+00	1.083242e-02	5.667582e-01	
366	1.660000e+00	1.092123e-02	5.678766e-01	
367	1.670000e+00	1.101006e-02	5.689941e-01	
368	1.680000e+00	1.109889e-02	5.701108e-01	
369	1.690000e+00	1.118773e-02	5.712266e-01	
370	1.700000e+00	1.127658e-02	5.723415e-01	
371	1.710000e+00	1.136544e-02	5.734556e-01	
372	1.720000e+00	1.145431e-02	5.745688e-01	
373	1.730000e+00	1.154319e-02	5.756812e-01	
374	1.740000e+00	1.163207e-02	5.767928e-01	
375	1.750000e+00	1.172096e-02	5.779035e-01	
376	1.760000e+00	1.180987e-02	5.790134e-01	
377	1.770000e+00	1.189877e-02	5.801225e-01	
378	1.780000e+00	1.198769e-02	5.812308e-01	
379	1.790000e+00	1.207662e-02	5.823383e-01	
380	1.800000e+00	1.216555e-02	5.834450e-01	
381	1.810000e+00	1.225449e-02	5.845510e-01	
382	1.820000e+00	1.234344e-02	5.856561e-01	
383	1.830000e+00	1.243240e-02	5.867605e-01	
384	1.840000e+00	1.252136e-02	5.878641e-01	
385	1.850000e+00	1.261033e-02	5.889669e-01	
386	1.860000e+00	1.269931e-02	5.900690e-01	
387	1.870000e+00	1.278830e-02	5.911703e-01	
388	1.880000e+00	1.287729e-02	5.922709e-01	
389	1.890000e+00	1.296629e-02	5.933707e-01	
390	1.900000e+00	1.305530e-02	5.944698e-01	
391	1.910000e+00	1.314432e-02	5.955682e-01	
392	1.920000e+00	1.323334e-02	5.966658e-01	
393	1.930000e+00	1.332237e-02	5.977628e-01	
394	1.940000e+00	1.341141e-02	5.988590e-01	
395	1.950000e+00	1.350045e-02	5.999545e-01	
396	1.960000e+00	1.358951e-02	6.010493e-01	
397	1.970000e+00	1.367857e-02	6.021434e-01	
398	1.980000e+00	1.376763e-02	6.032369e-01	
399	1.990000e+00	1.385670e-02	6.043296e-01	
400	2.000000e+00	1.394578e-02	6.054217e-01	
