                         solar cell i-v characteristics
                         DC transfer characteristic  Mon Sep 26 15:05:01  2022
--------------------------------------------------------------------------------
Index   v-sweep         i(vs)*v(2)      v(2)            
--------------------------------------------------------------------------------
0	-2.00000e+00	-9.93216e-03	-9.17634e-01	
1	-1.99000e+00	-9.82549e-03	-9.08535e-01	
2	-1.98000e+00	-9.71898e-03	-8.99436e-01	
3	-1.97000e+00	-9.61264e-03	-8.90337e-01	
4	-1.96000e+00	-9.50646e-03	-8.81238e-01	
5	-1.95000e+00	-9.40045e-03	-8.72139e-01	
6	-1.94000e+00	-9.29460e-03	-8.63040e-01	
7	-1.93000e+00	-9.18891e-03	-8.53941e-01	
8	-1.92000e+00	-9.08339e-03	-8.44842e-01	
9	-1.91000e+00	-8.97803e-03	-8.35743e-01	
10	-1.90000e+00	-8.87283e-03	-8.26644e-01	
11	-1.89000e+00	-8.76780e-03	-8.17545e-01	
12	-1.88000e+00	-8.66293e-03	-8.08445e-01	
13	-1.87000e+00	-8.55823e-03	-7.99346e-01	
14	-1.86000e+00	-8.45369e-03	-7.90247e-01	
15	-1.85000e+00	-8.34932e-03	-7.81148e-01	
16	-1.84000e+00	-8.24511e-03	-7.72049e-01	
17	-1.83000e+00	-8.14106e-03	-7.62950e-01	
18	-1.82000e+00	-8.03718e-03	-7.53851e-01	
19	-1.81000e+00	-7.93346e-03	-7.44752e-01	
20	-1.80000e+00	-7.82990e-03	-7.35653e-01	
21	-1.79000e+00	-7.72651e-03	-7.26554e-01	
22	-1.78000e+00	-7.62328e-03	-7.17455e-01	
23	-1.77000e+00	-7.52022e-03	-7.08356e-01	
24	-1.76000e+00	-7.41732e-03	-6.99257e-01	
25	-1.75000e+00	-7.31458e-03	-6.90158e-01	
26	-1.74000e+00	-7.21201e-03	-6.81059e-01	
27	-1.73000e+00	-7.10960e-03	-6.71960e-01	
28	-1.72000e+00	-7.00736e-03	-6.62861e-01	
29	-1.71000e+00	-6.90528e-03	-6.53762e-01	
30	-1.70000e+00	-6.80337e-03	-6.44663e-01	
31	-1.69000e+00	-6.70161e-03	-6.35564e-01	
32	-1.68000e+00	-6.60003e-03	-6.26465e-01	
33	-1.67000e+00	-6.49860e-03	-6.17366e-01	
34	-1.66000e+00	-6.39734e-03	-6.08267e-01	
35	-1.65000e+00	-6.29625e-03	-5.99168e-01	
36	-1.64000e+00	-6.19532e-03	-5.90069e-01	
37	-1.63000e+00	-6.09455e-03	-5.80970e-01	
38	-1.62000e+00	-5.99395e-03	-5.71871e-01	
39	-1.61000e+00	-5.89351e-03	-5.62772e-01	
40	-1.60000e+00	-5.79323e-03	-5.53673e-01	
41	-1.59000e+00	-5.69312e-03	-5.44574e-01	
42	-1.58000e+00	-5.59317e-03	-5.35475e-01	
43	-1.57000e+00	-5.49339e-03	-5.26377e-01	
44	-1.56000e+00	-5.39377e-03	-5.17278e-01	
45	-1.55000e+00	-5.29432e-03	-5.08179e-01	
46	-1.54000e+00	-5.19502e-03	-4.99080e-01	
47	-1.53000e+00	-5.09590e-03	-4.89982e-01	
48	-1.52000e+00	-4.99694e-03	-4.80883e-01	
49	-1.51000e+00	-4.89814e-03	-4.71784e-01	
50	-1.50000e+00	-4.79950e-03	-4.62686e-01	
51	-1.49000e+00	-4.70103e-03	-4.53587e-01	
52	-1.48000e+00	-4.60273e-03	-4.44488e-01	
53	-1.47000e+00	-4.50459e-03	-4.35390e-01	
54	-1.46000e+00	-4.40661e-03	-4.26292e-01	

Index   v-sweep         i(vs)*v(2)      v(2)            
--------------------------------------------------------------------------------
55	-1.45000e+00	-4.30880e-03	-4.17193e-01	
56	-1.44000e+00	-4.21115e-03	-4.08095e-01	
57	-1.43000e+00	-4.11367e-03	-3.98997e-01	
58	-1.42000e+00	-4.01635e-03	-3.89899e-01	
59	-1.41000e+00	-3.91920e-03	-3.80801e-01	
60	-1.40000e+00	-3.82222e-03	-3.71704e-01	
61	-1.39000e+00	-3.72540e-03	-3.62607e-01	
62	-1.38000e+00	-3.62874e-03	-3.53509e-01	
63	-1.37000e+00	-3.53225e-03	-3.44413e-01	
64	-1.36000e+00	-3.43593e-03	-3.35316e-01	
65	-1.35000e+00	-3.33978e-03	-3.26220e-01	
66	-1.34000e+00	-3.24379e-03	-3.17125e-01	
67	-1.33000e+00	-3.14797e-03	-3.08030e-01	
68	-1.32000e+00	-3.05233e-03	-2.98936e-01	
69	-1.31000e+00	-2.95685e-03	-2.89843e-01	
70	-1.30000e+00	-2.86156e-03	-2.80751e-01	
71	-1.29000e+00	-2.76643e-03	-2.71662e-01	
72	-1.28000e+00	-2.67149e-03	-2.62573e-01	
73	-1.27000e+00	-2.57673e-03	-2.53487e-01	
74	-1.26000e+00	-2.48215e-03	-2.44403e-01	
75	-1.25000e+00	-2.38776e-03	-2.35322e-01	
76	-1.24000e+00	-2.29356e-03	-2.26243e-01	
77	-1.23000e+00	-2.19955e-03	-2.17169e-01	
78	-1.22000e+00	-2.10575e-03	-2.08098e-01	
79	-1.21000e+00	-2.01215e-03	-1.99032e-01	
80	-1.20000e+00	-1.91877e-03	-1.89972e-01	
81	-1.19000e+00	-1.82562e-03	-1.80919e-01	
82	-1.18000e+00	-1.73270e-03	-1.71873e-01	
83	-1.17000e+00	-1.64003e-03	-1.62837e-01	
84	-1.16000e+00	-1.54763e-03	-1.53811e-01	
85	-1.15000e+00	-1.45551e-03	-1.44798e-01	
86	-1.14000e+00	-1.36369e-03	-1.35799e-01	
87	-1.13000e+00	-1.27220e-03	-1.26817e-01	
88	-1.12000e+00	-1.18107e-03	-1.17854e-01	
89	-1.11000e+00	-1.09032e-03	-1.08914e-01	
90	-1.10000e+00	-1.00000e-03	-1.00000e-01	
91	-1.09000e+00	-9.10148e-04	-9.11165e-02	
92	-1.08000e+00	-8.20814e-04	-8.22680e-02	
93	-1.07000e+00	-7.32056e-04	-7.34598e-02	
94	-1.06000e+00	-6.43938e-04	-6.46977e-02	
95	-1.05000e+00	-5.56531e-04	-5.59884e-02	
96	-1.04000e+00	-4.69917e-04	-4.73392e-02	
97	-1.03000e+00	-3.84186e-04	-3.87581e-02	
98	-1.02000e+00	-2.99437e-04	-3.02539e-02	
99	-1.01000e+00	-2.15775e-04	-2.18360e-02	
100	-1.00000e+00	-1.33317e-04	-1.35143e-02	
101	-9.90000e-01	-5.21830e-05	-5.29938e-03	
102	-9.80000e-01	2.749995e-05	2.798128e-03	
103	-9.70000e-01	1.056025e-04	1.076734e-02	
104	-9.60000e-01	1.819948e-04	1.859751e-02	
105	-9.50000e-01	2.565492e-04	2.627829e-02	
106	-9.40000e-01	3.291436e-04	3.379992e-02	
107	-9.30000e-01	3.996641e-04	4.115354e-02	
108	-9.20000e-01	4.680080e-04	4.833139e-02	
109	-9.10000e-01	5.340864e-04	5.532700e-02	
110	-9.00000e-01	5.978262e-04	6.213536e-02	
111	-8.90000e-01	6.591711e-04	6.875297e-02	
112	-8.80000e-01	7.180825e-04	7.517788e-02	

Index   v-sweep         i(vs)*v(2)      v(2)            
--------------------------------------------------------------------------------
113	-8.70000e-01	7.745394e-04	8.140967e-02	
114	-8.60000e-01	8.285378e-04	8.744931e-02	
115	-8.50000e-01	8.800894e-04	9.329909e-02	
116	-8.40000e-01	9.292200e-04	9.896243e-02	
117	-8.30000e-01	9.759678e-04	1.044437e-01	
118	-8.20000e-01	1.020381e-03	1.097481e-01	
119	-8.10000e-01	1.062517e-03	1.148815e-01	
120	-8.00000e-01	1.102439e-03	1.198499e-01	
121	-7.90000e-01	1.140216e-03	1.246601e-01	
122	-7.80000e-01	1.175918e-03	1.293186e-01	
123	-7.70000e-01	1.209619e-03	1.338322e-01	
124	-7.60000e-01	1.241392e-03	1.382077e-01	
125	-7.50000e-01	1.271313e-03	1.424517e-01	
126	-7.40000e-01	1.299453e-03	1.465707e-01	
127	-7.30000e-01	1.325884e-03	1.505710e-01	
128	-7.20000e-01	1.350675e-03	1.544585e-01	
129	-7.10000e-01	1.373893e-03	1.582390e-01	
130	-7.00000e-01	1.395602e-03	1.619181e-01	
131	-6.90000e-01	1.415863e-03	1.655010e-01	
132	-6.80000e-01	1.434736e-03	1.689927e-01	
133	-6.70000e-01	1.452276e-03	1.723979e-01	
134	-6.60000e-01	1.468538e-03	1.757210e-01	
135	-6.50000e-01	1.483570e-03	1.789662e-01	
136	-6.40000e-01	1.497421e-03	1.821375e-01	
137	-6.30000e-01	1.510136e-03	1.852385e-01	
138	-6.20000e-01	1.521758e-03	1.882728e-01	
139	-6.10000e-01	1.532328e-03	1.912437e-01	
140	-6.00000e-01	1.541884e-03	1.941542e-01	
141	-5.90000e-01	1.550461e-03	1.970072e-01	
142	-5.80000e-01	1.558095e-03	1.998056e-01	
143	-5.70000e-01	1.564817e-03	2.025517e-01	
144	-5.60000e-01	1.570658e-03	2.052482e-01	
145	-5.50000e-01	1.575646e-03	2.078971e-01	
146	-5.40000e-01	1.579810e-03	2.105007e-01	
147	-5.30000e-01	1.583174e-03	2.130611e-01	
148	-5.20000e-01	1.585763e-03	2.155800e-01	
149	-5.10000e-01	1.587600e-03	2.180592e-01	
150	-5.00000e-01	1.588708e-03	2.205006e-01	
151	-4.90000e-01	1.589106e-03	2.229056e-01	
152	-4.80000e-01	1.588815e-03	2.252757e-01	
153	-4.70000e-01	1.587853e-03	2.276125e-01	
154	-4.60000e-01	1.586237e-03	2.299171e-01	
155	-4.50000e-01	1.583986e-03	2.321910e-01	
156	-4.40000e-01	1.581113e-03	2.344352e-01	
157	-4.30000e-01	1.577636e-03	2.366510e-01	
158	-4.20000e-01	1.573568e-03	2.388394e-01	
159	-4.10000e-01	1.568922e-03	2.410014e-01	
160	-4.00000e-01	1.563713e-03	2.431380e-01	
161	-3.90000e-01	1.557952e-03	2.452502e-01	
162	-3.80000e-01	1.551652e-03	2.473388e-01	
163	-3.70000e-01	1.544824e-03	2.494046e-01	
164	-3.60000e-01	1.537478e-03	2.514485e-01	
165	-3.50000e-01	1.529625e-03	2.534711e-01	
166	-3.40000e-01	1.521275e-03	2.554733e-01	
167	-3.30000e-01	1.512438e-03	2.574557e-01	
168	-3.20000e-01	1.503122e-03	2.594189e-01	
169	-3.10000e-01	1.493336e-03	2.613635e-01	
170	-3.00000e-01	1.483089e-03	2.632903e-01	

Index   v-sweep         i(vs)*v(2)      v(2)            
--------------------------------------------------------------------------------
171	-2.90000e-01	1.472388e-03	2.651997e-01	
172	-2.80000e-01	1.461241e-03	2.670922e-01	
173	-2.70000e-01	1.449656e-03	2.689685e-01	
174	-2.60000e-01	1.437639e-03	2.708290e-01	
175	-2.50000e-01	1.425197e-03	2.726741e-01	
176	-2.40000e-01	1.412337e-03	2.745044e-01	
177	-2.30000e-01	1.399065e-03	2.763202e-01	
178	-2.20000e-01	1.385387e-03	2.781220e-01	
179	-2.10000e-01	1.371308e-03	2.799102e-01	
180	-2.00000e-01	1.356835e-03	2.816851e-01	
181	-1.90000e-01	1.341973e-03	2.834472e-01	
182	-1.80000e-01	1.326727e-03	2.851968e-01	
183	-1.70000e-01	1.311101e-03	2.869342e-01	
184	-1.60000e-01	1.295101e-03	2.886598e-01	
185	-1.50000e-01	1.278731e-03	2.903739e-01	
186	-1.40000e-01	1.261996e-03	2.920767e-01	
187	-1.30000e-01	1.244900e-03	2.937687e-01	
188	-1.20000e-01	1.227447e-03	2.954499e-01	
189	-1.10000e-01	1.209641e-03	2.971209e-01	
190	-1.00000e-01	1.191486e-03	2.987816e-01	
191	-9.00000e-02	1.172987e-03	3.004326e-01	
192	-8.00000e-02	1.154145e-03	3.020739e-01	
193	-7.00000e-02	1.134966e-03	3.037058e-01	
194	-6.00000e-02	1.115453e-03	3.053286e-01	
195	-5.00000e-02	1.095608e-03	3.069424e-01	
196	-4.00000e-02	1.075435e-03	3.085476e-01	
197	-3.00000e-02	1.054937e-03	3.101441e-01	
198	-2.00000e-02	1.034117e-03	3.117324e-01	
199	-1.00000e-02	1.012979e-03	3.133125e-01	
200	1.641048e-15	9.915237e-04	3.148847e-01	
201	1.000000e-02	9.697554e-04	3.164491e-01	
202	2.000000e-02	9.476763e-04	3.180059e-01	
203	3.000000e-02	9.252890e-04	3.195553e-01	
204	4.000000e-02	9.025961e-04	3.210973e-01	
205	5.000000e-02	8.796000e-04	3.226323e-01	
206	6.000000e-02	8.563030e-04	3.241603e-01	
207	7.000000e-02	8.327075e-04	3.256815e-01	
208	8.000000e-02	8.088157e-04	3.271960e-01	
209	9.000000e-02	7.846297e-04	3.287040e-01	
210	1.000000e-01	7.601518e-04	3.302056e-01	
211	1.100000e-01	7.353839e-04	3.317009e-01	
212	1.200000e-01	7.103282e-04	3.331901e-01	
213	1.300000e-01	6.849864e-04	3.346732e-01	
214	1.400000e-01	6.593606e-04	3.361505e-01	
215	1.500000e-01	6.334526e-04	3.376219e-01	
216	1.600000e-01	6.072642e-04	3.390877e-01	
217	1.700000e-01	5.807972e-04	3.405479e-01	
218	1.800000e-01	5.540533e-04	3.420026e-01	
219	1.900000e-01	5.270341e-04	3.434520e-01	
220	2.000000e-01	4.997413e-04	3.448962e-01	
221	2.100000e-01	4.721765e-04	3.463351e-01	
222	2.200000e-01	4.443412e-04	3.477691e-01	
223	2.300000e-01	4.162370e-04	3.491980e-01	
224	2.400000e-01	3.878654e-04	3.506221e-01	
225	2.500000e-01	3.592277e-04	3.520413e-01	
226	2.600000e-01	3.303254e-04	3.534559e-01	
227	2.700000e-01	3.011599e-04	3.548658e-01	
228	2.800000e-01	2.717325e-04	3.562712e-01	

Index   v-sweep         i(vs)*v(2)      v(2)            
--------------------------------------------------------------------------------
229	2.900000e-01	2.420446e-04	3.576722e-01	
230	3.000000e-01	2.120974e-04	3.590687e-01	
231	3.100000e-01	1.818921e-04	3.604610e-01	
232	3.200000e-01	1.514301e-04	3.618490e-01	
233	3.300000e-01	1.207125e-04	3.632328e-01	
234	3.400000e-01	8.974044e-05	3.646125e-01	
235	3.500000e-01	5.851514e-05	3.659883e-01	
236	3.600000e-01	2.703771e-05	3.673600e-01	
237	3.700000e-01	-4.69077e-06	3.687279e-01	
238	3.800000e-01	-3.66692e-05	3.700919e-01	
239	3.900000e-01	-6.88965e-05	3.714521e-01	
240	4.000000e-01	-1.01372e-04	3.728086e-01	
241	4.100000e-01	-1.34094e-04	3.741615e-01	
242	4.200000e-01	-1.67062e-04	3.755108e-01	
243	4.300000e-01	-2.00275e-04	3.768565e-01	
244	4.400000e-01	-2.33731e-04	3.781988e-01	
245	4.500000e-01	-2.67431e-04	3.795376e-01	
246	4.600000e-01	-3.01373e-04	3.808730e-01	
247	4.700000e-01	-3.35556e-04	3.822052e-01	
248	4.800000e-01	-3.69980e-04	3.835340e-01	
249	4.900000e-01	-4.04643e-04	3.848596e-01	
250	5.000000e-01	-4.39545e-04	3.861820e-01	
251	5.100000e-01	-4.74684e-04	3.875013e-01	
252	5.200000e-01	-5.10060e-04	3.888175e-01	
253	5.300000e-01	-5.45673e-04	3.901307e-01	
254	5.400000e-01	-5.81521e-04	3.914409e-01	
255	5.500000e-01	-6.17604e-04	3.927481e-01	
256	5.600000e-01	-6.53921e-04	3.940524e-01	
257	5.700000e-01	-6.90470e-04	3.953538e-01	
258	5.800000e-01	-7.27253e-04	3.966524e-01	
259	5.900000e-01	-7.64267e-04	3.979482e-01	
260	6.000000e-01	-8.01512e-04	3.992412e-01	
261	6.100000e-01	-8.38987e-04	4.005315e-01	
262	6.200000e-01	-8.76692e-04	4.018192e-01	
263	6.300000e-01	-9.14626e-04	4.031042e-01	
264	6.400000e-01	-9.52789e-04	4.043866e-01	
265	6.500000e-01	-9.91179e-04	4.056664e-01	
266	6.600000e-01	-1.02980e-03	4.069437e-01	
267	6.700000e-01	-1.06864e-03	4.082185e-01	
268	6.800000e-01	-1.10771e-03	4.094908e-01	
269	6.900000e-01	-1.14701e-03	4.107607e-01	
270	7.000000e-01	-1.18653e-03	4.120282e-01	
271	7.100000e-01	-1.22627e-03	4.132933e-01	
272	7.200000e-01	-1.26624e-03	4.145561e-01	
273	7.300000e-01	-1.30643e-03	4.158165e-01	
274	7.400000e-01	-1.34684e-03	4.170747e-01	
275	7.500000e-01	-1.38747e-03	4.183306e-01	
276	7.600000e-01	-1.42833e-03	4.195842e-01	
277	7.700000e-01	-1.46941e-03	4.208357e-01	
278	7.800000e-01	-1.51071e-03	4.220850e-01	
279	7.900000e-01	-1.55222e-03	4.233322e-01	
280	8.000000e-01	-1.59396e-03	4.245772e-01	
281	8.100000e-01	-1.63592e-03	4.258202e-01	
282	8.200000e-01	-1.67809e-03	4.270610e-01	
283	8.300000e-01	-1.72048e-03	4.282999e-01	
284	8.400000e-01	-1.76309e-03	4.295367e-01	
285	8.500000e-01	-1.80592e-03	4.307715e-01	
286	8.600000e-01	-1.84896e-03	4.320043e-01	

Index   v-sweep         i(vs)*v(2)      v(2)            
--------------------------------------------------------------------------------
287	8.700000e-01	-1.89222e-03	4.332352e-01	
288	8.800000e-01	-1.93569e-03	4.344642e-01	
289	8.900000e-01	-1.97938e-03	4.356913e-01	
290	9.000000e-01	-2.02329e-03	4.369165e-01	
291	9.100000e-01	-2.06741e-03	4.381398e-01	
292	9.200000e-01	-2.11174e-03	4.393613e-01	
293	9.300000e-01	-2.15629e-03	4.405810e-01	
294	9.400000e-01	-2.20105e-03	4.417989e-01	
295	9.500000e-01	-2.24602e-03	4.430150e-01	
296	9.600000e-01	-2.29120e-03	4.442293e-01	
297	9.700000e-01	-2.33660e-03	4.454419e-01	
298	9.800000e-01	-2.38221e-03	4.466528e-01	
299	9.900000e-01	-2.42803e-03	4.478620e-01	
300	1.000000e+00	-2.47406e-03	4.490696e-01	
301	1.010000e+00	-2.52030e-03	4.502754e-01	
302	1.020000e+00	-2.56675e-03	4.514796e-01	
303	1.030000e+00	-2.61341e-03	4.526822e-01	
304	1.040000e+00	-2.66029e-03	4.538832e-01	
305	1.050000e+00	-2.70737e-03	4.550826e-01	
306	1.060000e+00	-2.75465e-03	4.562804e-01	
307	1.070000e+00	-2.80215e-03	4.574767e-01	
308	1.080000e+00	-2.84986e-03	4.586714e-01	
309	1.090000e+00	-2.89777e-03	4.598646e-01	
310	1.100000e+00	-2.94589e-03	4.610563e-01	
311	1.110000e+00	-2.99422e-03	4.622464e-01	
312	1.120000e+00	-3.04275e-03	4.634352e-01	
313	1.130000e+00	-3.09149e-03	4.646224e-01	
314	1.140000e+00	-3.14044e-03	4.658082e-01	
315	1.150000e+00	-3.18959e-03	4.669926e-01	
316	1.160000e+00	-3.23895e-03	4.681755e-01	
317	1.170000e+00	-3.28852e-03	4.693571e-01	
318	1.180000e+00	-3.33829e-03	4.705372e-01	
319	1.190000e+00	-3.38826e-03	4.717160e-01	
320	1.200000e+00	-3.43844e-03	4.728935e-01	
321	1.210000e+00	-3.48882e-03	4.740695e-01	
322	1.220000e+00	-3.53941e-03	4.752443e-01	
323	1.230000e+00	-3.59020e-03	4.764177e-01	
324	1.240000e+00	-3.64119e-03	4.775898e-01	
325	1.250000e+00	-3.69239e-03	4.787606e-01	
326	1.260000e+00	-3.74379e-03	4.799301e-01	
327	1.270000e+00	-3.79539e-03	4.810984e-01	
328	1.280000e+00	-3.84720e-03	4.822653e-01	
329	1.290000e+00	-3.89920e-03	4.834311e-01	
330	1.300000e+00	-3.95141e-03	4.845956e-01	
331	1.310000e+00	-4.00382e-03	4.857589e-01	
332	1.320000e+00	-4.05644e-03	4.869209e-01	
333	1.330000e+00	-4.10925e-03	4.880818e-01	
334	1.340000e+00	-4.16226e-03	4.892415e-01	
335	1.350000e+00	-4.21548e-03	4.904000e-01	
336	1.360000e+00	-4.26889e-03	4.915573e-01	
337	1.370000e+00	-4.32251e-03	4.927135e-01	
338	1.380000e+00	-4.37632e-03	4.938685e-01	
339	1.390000e+00	-4.43034e-03	4.950224e-01	
340	1.400000e+00	-4.48455e-03	4.961751e-01	
341	1.410000e+00	-4.53897e-03	4.973268e-01	
342	1.420000e+00	-4.59358e-03	4.984773e-01	
343	1.430000e+00	-4.64839e-03	4.996268e-01	
344	1.440000e+00	-4.70340e-03	5.007751e-01	

Index   v-sweep         i(vs)*v(2)      v(2)            
--------------------------------------------------------------------------------
345	1.450000e+00	-4.75861e-03	5.019224e-01	
346	1.460000e+00	-4.81402e-03	5.030686e-01	
347	1.470000e+00	-4.86963e-03	5.042137e-01	
348	1.480000e+00	-4.92543e-03	5.053578e-01	
349	1.490000e+00	-4.98143e-03	5.065009e-01	
350	1.500000e+00	-5.03763e-03	5.076429e-01	
351	1.510000e+00	-5.09403e-03	5.087839e-01	
352	1.520000e+00	-5.15062e-03	5.099239e-01	
353	1.530000e+00	-5.20741e-03	5.110629e-01	
354	1.540000e+00	-5.26440e-03	5.122009e-01	
355	1.550000e+00	-5.32158e-03	5.133379e-01	
356	1.560000e+00	-5.37896e-03	5.144739e-01	
357	1.570000e+00	-5.43653e-03	5.156090e-01	
358	1.580000e+00	-5.49431e-03	5.167431e-01	
359	1.590000e+00	-5.55227e-03	5.178762e-01	
360	1.600000e+00	-5.61044e-03	5.190084e-01	
361	1.610000e+00	-5.66880e-03	5.201397e-01	
362	1.620000e+00	-5.72735e-03	5.212700e-01	
363	1.630000e+00	-5.78610e-03	5.223994e-01	
364	1.640000e+00	-5.84504e-03	5.235279e-01	
365	1.650000e+00	-5.90418e-03	5.246555e-01	
366	1.660000e+00	-5.96351e-03	5.257821e-01	
367	1.670000e+00	-6.02304e-03	5.269079e-01	
368	1.680000e+00	-6.08276e-03	5.280328e-01	
369	1.690000e+00	-6.14268e-03	5.291568e-01	
370	1.700000e+00	-6.20279e-03	5.302800e-01	
371	1.710000e+00	-6.26310e-03	5.314023e-01	
372	1.720000e+00	-6.32359e-03	5.325237e-01	
373	1.730000e+00	-6.38428e-03	5.336442e-01	
374	1.740000e+00	-6.44517e-03	5.347640e-01	
375	1.750000e+00	-6.50625e-03	5.358829e-01	
376	1.760000e+00	-6.56752e-03	5.370009e-01	
377	1.770000e+00	-6.62898e-03	5.381181e-01	
378	1.780000e+00	-6.69064e-03	5.392345e-01	
379	1.790000e+00	-6.75248e-03	5.403501e-01	
380	1.800000e+00	-6.81453e-03	5.414649e-01	
381	1.810000e+00	-6.87676e-03	5.425789e-01	
382	1.820000e+00	-6.93919e-03	5.436921e-01	
383	1.830000e+00	-7.00180e-03	5.448045e-01	
384	1.840000e+00	-7.06461e-03	5.459161e-01	
385	1.850000e+00	-7.12761e-03	5.470270e-01	
386	1.860000e+00	-7.19081e-03	5.481371e-01	
387	1.870000e+00	-7.25419e-03	5.492464e-01	
388	1.880000e+00	-7.31777e-03	5.503549e-01	
389	1.890000e+00	-7.38153e-03	5.514627e-01	
390	1.900000e+00	-7.44549e-03	5.525698e-01	
391	1.910000e+00	-7.50964e-03	5.536761e-01	
392	1.920000e+00	-7.57398e-03	5.547817e-01	
393	1.930000e+00	-7.63851e-03	5.558865e-01	
394	1.940000e+00	-7.70323e-03	5.569907e-01	
395	1.950000e+00	-7.76814e-03	5.580941e-01	
396	1.960000e+00	-7.83325e-03	5.591967e-01	
397	1.970000e+00	-7.89854e-03	5.602987e-01	
398	1.980000e+00	-7.96402e-03	5.614000e-01	
399	1.990000e+00	-8.02969e-03	5.625006e-01	
400	2.000000e+00	-8.09555e-03	5.636004e-01	
